Circuit: * C:\Users\noobe\Documents\AnalogCiruitsProjects\ProjectTestSchematic.asc

Model "cmosp": Oxide thickness thinner than recommended for a level 2 MOSFET.
Instance "m2": Length shorter than recommended for a level 2 MOSFET.
Model "cmosn": Oxide thickness thinner than recommended for a level 2 MOSFET.
Instance "m1": Length shorter than recommended for a level 2 MOSFET.
Direct Newton iteration for .op point succeeded.
Semiconductor Device Operating Points:
                        --- MOSFET Transistors ---
Name:          m2          m1
Model:        cmosp       cmosn
Id:         -1.62e-04    2.21e-04
Vgs:        -2.00e+00    1.60e+00
Vds:        -1.00e+01    1.00e+01
Vbs:         0.00e+00    0.00e+00
Vth:        -7.40e-01    6.32e-01
Vdsat:      -1.07e+00    7.98e-01
Gm:          2.39e-04    4.30e-04
Gds:         1.08e-05    9.97e-06
Gmb:         5.66e-05    1.20e-04
Cbd:         0.00e+00    0.00e+00
Cbs:         0.00e+00    0.00e+00
Cgsov:       1.08e-16    8.05e-16
Cgdov:       1.08e-16    8.05e-16
Cgbov:       3.36e-16    3.61e-16
Cgs:         6.14e-15    6.39e-15
Cgd:         0.00e+00    0.00e+00
Cgb:         0.00e+00    0.00e+00



Date: Fri Oct 26 16:27:27 2018
Total elapsed time: 0.090 seconds.

tnom = 27
temp = 27
method = trap
totiter = 5
traniter = 0
tranpoints = 0
accept = 0
rejected = 0
matrix size = 9
fillins = 0
solver = Normal
Matrix Compiler1: 242 bytes object code size
Matrix Compiler2: 513 bytes object code size
